X--Trace 1::[transient: TIME],Y--Trace 1::[V_uC: V(1)],,X--Trace 2::[transient: TIME],Y--Trace 2::[V_Base: V(4)],,X--Trace 3::[transient: TIME],Y--Trace 3::[V_Col: V(3)]
0,1.9903026607218626e-9,,0,7.570521604069386e-8,,0,3.2999999981367423
1.0000000000000001e-11,2.016307388833205e-9,,1.0000000000000001e-11,7.570522767306483e-8,,1.0000000000000001e-11,3.2999999981367463
2.0000000000000002e-11,2.0683168450348442e-9,,2.0000000000000002e-11,7.570525593484624e-8,,2.0000000000000002e-11,3.29999999813676
4.0000000000000004e-11,2.224345213576627e-9,,4.0000000000000004e-11,7.570534790333857e-8,,4.0000000000000004e-11,3.299999998136806
8.000000000000001e-11,2.848458686986133e-9,,8.000000000000001e-11,7.570578575536061e-8,,8.000000000000001e-11,3.2999999981370203
1.6000000000000002e-10,5.344912574058119e-9,,1.6000000000000002e-10,7.570824939050546e-8,,1.6000000000000002e-10,3.2999999981384334
3.2000000000000003e-10,1.5330728068808463e-8,,3.2000000000000003e-10,7.572344255241497e-8,,3.2000000000000003e-10,3.2999999981479227
6.400000000000001e-10,5.527398961750184e-8,,6.400000000000001e-10,7.582426197922958e-8,,6.400000000000001e-10,3.299999998207274
1e-9,1.3203994439382425e-7,,1e-9,7.610687020933802e-8,,1e-9,3.299999998354624
1.064e-9,1.486829696388212e-7,,1.064e-9,7.618374755565107e-8,,1.064e-9,3.2999999983916544
1.192e-9,1.819690199564326e-7,,1.192e-9,7.635220101345222e-8,,1.192e-9,3.2999999984700383
1.448e-9,2.4854111955738353e-7,,1.448e-9,7.677504287907831e-8,,1.448e-9,3.2999999986454087
1.96e-9,3.816853146224251e-7,,1.96e-9,7.795150249421714e-8,,1.96e-9,3.29999999902979
2.984e-9,6.479736882068298e-7,,2.984e-9,8.159079879667729e-8,,2.984e-9,3.2999999998287555
5.032e-9,0.0000011805503692067724,,5.032e-9,9.393504661377187e-8,,5.032e-9,3.3000000014190576
9.128e-9,0.000002245703466640157,,9.128e-9,1.385527003693096e-7,,9.128e-9,3.300000004536476
1.7320000000000002e-8,0.0000043760086040878945,,1.7320000000000002e-8,3.049949120352283e-7,,1.7320000000000002e-8,3.300000010537022
3.370400000000001e-8,0.00000863661465570819,,3.370400000000001e-8,9.277135505035939e-7,,3.370400000000001e-8,3.300000021651088
6.647200000000001e-8,0.000017157809911656145,,6.647200000000001e-8,0.0000031965897230890063,,6.647200000000001e-8,3.300000040753921
1.3200800000000003e-7,0.00003420013333019354,,1.3200800000000003e-7,0.000010950619538106757,,1.3200800000000003e-7,3.3000000691317175
2.6308000000000005e-7,0.00006828451338150407,,2.6308000000000005e-7,0.000034615883738983,,2.6308000000000005e-7,3.3000001009649558
5.252240000000001e-7,0.00013645221257772928,,5.252240000000001e-7,0.00009610222243635217,,5.252240000000001e-7,3.300000121377723
0.0000010495120000000002,0.0002727833823200478,,0.0000010495120000000002,0.00023156749279207265,,0.0000010495120000000002,3.300000124023288
0.0000020980880000000004,0.0005454288242439152,,0.0000020980880000000004,0.0005044772187835869,,0.0000020980880000000004,3.3000001232148524
0.000004195240000000001,0.001090652127750216,,0.000004195240000000001,0.0010495423801258452,,0.000004195240000000001,3.3000001236971035
0.000008389544000000002,0.002180828468154205,,0.000008389544000000002,0.0021398481052226155,,0.000008389544000000002,3.300000123299066
0.000016778152000000003,0.004360100529746395,,0.000016778152000000003,0.004319014320408065,,0.000016778152000000003,3.300000123617657
0.000033555368000000007,0.008714325744770619,,0.000033555368000000007,0.008673358561356889,,0.000033555368000000007,3.300000123242725
0.00006710980000000001,0.01740552905476511,,0.00006710980000000001,0.017364484240240972,,0.00006710980000000001,3.3000001234546144
0.00013421866400000002,0.03471917461354595,,0.00013421866400000002,0.03467828087835944,,0.00013421866400000002,3.300000122920948
0.00023421866400000002,0.06034931370926978,,0.00023421866400000002,0.06030838682196307,,0.00023421866400000002,3.3000001228379308
0.000334218664,0.08577827433230938,,0.000334218664,0.08573750523741484,,0.000334218664,3.300000121970046
0.000434218664,0.11100763558940338,,0.000434218664,0.1109668130286946,,0.000434218664,3.300000121249726
0.000500001,0.1274959708306368,,0.000500001,0.1274552683404847,,0.000500001,3.3000001197598654
0.0005000011000000001,0.12749599323018687,,0.0005000011000000001,0.12745529330497332,,0.0005000011000000001,3.300000119765575
0.0005000013,0.12749603282834113,,0.0005000013,0.12745534322593233,,0.0005000013,3.3000001197674393
0.0005000017,0.12749608081897454,,0.0005000017,0.12745544295795616,,0.0005000017,3.3000001196990985
0.000500002,0.1274960895069844,,0.000500002,0.12745551761594193,,0.000500002,3.3000001195748974
0.00050000208,0.12749608870321966,,0.00050000208,0.1274555374933443,,0.00050000208,3.300000119528891
0.0005000022400000001,0.12749608709569019,,0.0005000022400000001,0.12745557722591974,,0.0005000022400000001,3.3000001194305435
0.0005000025600000001,0.12749608388063136,,0.0005000025600000001,0.12745565656176708,,0.0005000025600000001,3.300000119207947
0.0005000032000000001,0.127496077450514,,0.0005000032000000001,0.1274558147364846,,0.0005000032000000001,3.3000001187220325
0.0005000044800000001,0.12749606459028104,,0.0005000044800000001,0.1274561291487294,,0.0005000044800000001,3.3000001177241356
0.0005000070400000002,0.1274960388698216,,0.0005000070400000002,0.12745675033743759,,0.0005000070400000002,3.3000001157498073
0.0005000121600000002,0.12749598742892868,,0.0005000121600000002,0.12745796276334526,,0.0005000121600000002,3.3000001118932083
0.0005000224000000004,0.1274958845472451,,0.0005000224000000004,0.12746027236047455,,0.0005000224000000004,3.3000001045310103
0.0005000428800000007,0.12749567878427537,,0.0005000428800000007,0.12746446453836752,,0.0005000428800000007,3.3000000911104737
0.0005000838400000014,0.12749526725984306,,0.0005000838400000014,0.12747137873846281,,0.0005000838400000014,3.3000000687550175
0.0005001657600000027,0.12749444421649456,,0.0005001657600000027,0.12748080045497712,,0.0005001657600000027,3.300000037492358
0.0005003296000000053,0.12749279814930436,,0.0005003296000000053,0.12748937732786741,,0.0005003296000000053,3.3000000062959423
0.0005006572800000104,0.1274895060840168,,0.0005006572800000104,0.1274911722644186,,0.0005006572800000104,3.299999990772926
0.0005013126400000207,0.12748292221199617,,0.0005013126400000207,0.12748457749918565,,0.0005013126400000207,3.2999999908065742
0.0005026233600000414,0.1274697554879416,,0.0005026233600000414,0.12747141493949224,,0.0005026233600000414,3.299999990795135
0.0005052448000000826,0.12744342611929294,,0.0005052448000000826,0.12744508237018062,,0.0005052448000000826,3.2999999908069437
0.0005104876800001652,0.12739078369560589,,0.0005104876800001652,0.12739244170599975,,0.0005104876800001652,3.2999999908064073
0.0005209734400003303,0.12728556406900052,,0.0005209734400003303,0.12728721867083725,,0.0005209734400003303,3.2999999908260476
0.0005419449600006605,0.12707538542961458,,0.0005419449600006605,0.12707703961295705,,0.0005419449600006605,3.299999990845792
0.0005838880000013208,0.12665606845625213,,0.0005838880000013208,0.12665771566113856,,0.0005838880000013208,3.299999990903316
0.0006677740800026417,0.12582157859568652,,0.0006677740800026417,0.12582321790622605,,0.0006677740800026417,3.2999999909983733
0.0007677740800026417,0.12483396843435772,,0.0007677740800026417,0.124835594030349,,0.0007677740800026417,3.2999999911213025
0.0008677740800026417,0.12385411031263192,,0.0008677740800026417,0.12385572620255149,,0.0008677740800026417,3.2999999912289444
0.0009677740800026418,0.12288194338249052,,0.0009677740800026418,0.12288354570916189,,0.0009677740800026418,3.2999999913449343
0.001,0.12257028376662688,,0.001,0.1225718842884565,,0.001,3.2999999913740763
0.0010000001,0.12257028540121913,,0.0010000001,0.12257188332514135,,0.0010000001,3.29999999137595
0.0010000003000000001,0.1225702938713492,,0.0010000003000000001,0.12257188140885308,,0.0010000003000000001,3.2999999913860845
0.0010000007,0.12257034201728222,,0.0010000007,0.12257187768276953,,0.0010000007,3.299999991465462
0.001000001,0.12257040543169515,,0.001000001,0.12257187502782892,,0.001000001,3.299999991592443
0.0010000010799999998,0.12257042546277232,,0.0010000010799999998,0.12257187435124177,,0.0010000010799999998,3.2999999916388307
0.0010000012399999998,0.12257046552492641,,0.0010000012399999998,0.12257187302026658,,0.0010000012399999998,3.299999991737838
0.0010000015599999999,0.122570545649233,,0.0010000015599999999,0.1225718704877889,,0.0010000015599999999,3.2999999919613625
0.0010000022,0.12257070589783989,,0.0010000022,0.1225718659207864,,0.0010000022,3.2999999924482997
0.0010000034799999998,0.12257102639502868,,0.0010000034799999998,0.12257185872856802,,0.0010000034799999998,3.299999993447532
0.0010000060399999995,0.12257166738930653,,0.0010000060399999995,0.12257185199886687,,0.0010000060399999995,3.2999999954245482
0.001000011159999999,0.12257294937746399,,0.001000011159999999,0.12257186856444642,,0.001000011159999999,3.299999999285918
0.001000021399999998,0.12257551335218703,,0.001000021399999998,0.12257201722813213,,0.001000021399999998,3.3000000066568678
0.0010000418799999962,0.1225806412952776,,0.0010000418799999962,0.12257274256231081,,0.0010000418799999962,3.3000000200923005
0.0010000828399999923,0.12259089715611998,,0.0010000828399999923,0.12257566653646988,,0.0010000828399999923,3.3000000424670124
0.0010001647599999848,0.12261140877696318,,0.0010001647599999848,0.12258592915072156,,0.0010001647599999848,3.300000073743122
0.0010003285999999696,0.1226524316178478,,0.0010003285999999696,0.12261673333683441,,0.0010003285999999696,3.300000104925196
0.0010006562799999392,0.12273447570537424,,0.0010006562799999392,0.1226937021317328,,0.0010006562799999392,3.3000001204073195
0.0010013116399998784,0.12289855752145894,,0.0010013116399998784,0.12285779909061904,,0.0010013116399998784,3.300000120348484
0.0010026223599997569,0.1232266957335221,,0.0010026223599997569,0.1231859317741423,,0.0010026223599997569,3.300000120339398
0.001005243799999514,0.12388287049029503,,0.001005243799999514,0.1238421114973358,,0.001005243799999514,3.3000001202718976
0.0010104866799990281,0.12519481343944136,,0.0010104866799990281,0.12515405301364035,,0.0010104866799990281,3.3000001201677396
0.0010209724399980564,0.12781707391962926,,0.0010209724399980564,0.12777632007233208,,0.0010209724399980564,3.300000119915979
0.0010419439599961128,0.13305509991746003,,0.0010419439599961128,0.1330143495953673,,0.0010419439599961128,3.300000119376274
0.0010838869999922258,0.14350522564212861,,0.0010838869999922258,0.1434644872826916,,0.0010838869999922258,3.3000001179562686
0.0011677730799844518,0.1643021990519339,,0.0011677730799844518,0.1642614553122458,,0.0011677730799844518,3.3000001131882075
0.0012677730799844518,0.18891520297611858,,0.0012677730799844518,0.1888743941777546,,0.0012677730799844518,3.3000001008632998
0.0013677730799844519,0.21333501217847636,,0.0013677730799844519,0.21329399955406933,,0.0013677730799844519,3.300000072292781
0.001467773079984452,0.2375631430594939,,0.001467773079984452,0.23752167279293115,,0.001467773079984452,3.3000000059399994
0.001500001,0.24533073700631697,,0.001500001,0.24528902050291215,,0.001500001,3.299999969708193
0.0015000011,0.24533075847730293,,0.0015000011,0.24528904456986264,,0.0015000011,3.2999999697096194
0.0015000013,0.24533079621832896,,0.0015000013,0.24528909269479543,,0.0015000013,3.2999999697048237
0.0015000017000000002,0.24533084049470583,,0.0015000017000000002,0.24528918883908674,,0.0015000017000000002,3.2999999696311866
0.001500002,0.24533084639702335,,0.001500002,0.24528926081040103,,0.001500002,3.29999996950677
0.0015000020800000002,0.24533084485040732,,0.0015000020800000002,0.2452892799721389,,0.0015000020800000002,3.299999969460961
0.0015000022400000002,0.24533084175717526,,0.0015000022400000002,0.24528931827398115,,0.0015000022400000002,3.2999999693630406
0.0015000025600000002,0.2453308355707114,,0.0015000025600000002,0.24528939475169173,,0.0015000025600000002,3.2999999691411595
0.0015000032000000003,0.2453308231977843,,0.0015000032000000003,0.2452895472231403,,0.0015000032000000003,3.2999999686555377
0.0015000044800000003,0.24533079845193242,,0.0015000044800000003,0.24528985028095704,,0.0015000044800000003,3.299999967655753
0.0015000070400000007,0.24533074896023893,,0.0015000070400000007,0.24529044896751928,,0.0015000070400000007,3.2999999656758976
0.0015000121600000013,0.24533064997689263,,0.0015000121600000013,0.24529161718515152,,0.0015000121600000013,3.2999999618061975
0.0015000224000000027,0.24533045201035997,,0.0015000224000000027,0.24529384130408036,,0.0015000224000000027,3.299999954409066
0.0015000428800000052,0.24533005607792308,,0.0015000428800000052,0.2452978725093386,,0.0015000428800000052,3.2999999408895535
0.0015000838400000102,0.24532926421548193,,0.0015000838400000102,0.2453044931486736,,0.0015000838400000102,3.299999918253219
0.0015001657600000203,0.24532768049982598,,0.0015001657600000203,0.24531337922117144,,0.0015001657600000203,3.2999998862837883
0.0015003296000000407,0.2453245131028663,,0.0015003296000000407,0.2453208633303588,,0.0015003296000000407,3.299999853767583
0.0015006572800000814,0.2453181784372698,,0.0015006572800000814,0.2453200634063346,,0.0015006572800000814,3.2999998368973777
0.0015013126400001628,0.2453055096007098,,0.0015013126400001628,0.24530749175554087,,0.0015013126400001628,3.2999998366692798
0.0015026233600003256,0.2452801738903736,,0.0015026233600003256,0.2452821190971547,,0.0015026233600003256,3.299999836920112
0.001505244800000651,0.24522951031945606,,0.001505244800000651,0.2452314814675502,,0.001505244800000651,3.2999998371161947
0.001510487680001302,0.2451282145687018,,0.001510487680001302,0.24513016786099842,,0.001510487680001302,3.299999837720056
0.001520973440002604,0.2449257485665765,,0.001520973440002604,0.24492772500514534,,0.001520973440002604,3.299999838741128
0.0015419449600052079,0.2445213180418836,,0.0015419449600052079,0.24452328638790533,,0.0015419449600052079,3.2999998409241
0.0015838880000104158,0.24371445877370834,,0.0015838880000104158,0.24371646247336543,,0.0015838880000104158,3.2999998450308836
0.0016677740800208317,0.2421087143895588,,0.0016677740800208317,0.24211073562777224,,0.0016677740800208317,3.299999853020196
0.0017677740800208317,0.2402083324496176,,0.0017677740800208317,0.24021040796428747,,0.0017677740800208317,3.2999998618063797
0.0018677740800208318,0.2383228671729961,,0.0018677740800208318,0.23832496000141565,,0.0018677740800208318,3.299999870066167
0.001967774080020832,0.23645220147367305,,0.001967774080020832,0.2364543414845638,,0.001967774080020832,3.299999877644392
0.002,0.2358524989611334,,0.002,0.23585463185046832,,0.002,3.299999880037023
0.0020000001,0.2358524997030369,,0.0020000001,0.2358546299998305,,0.0020000001,3.299999880038862
0.0020000003,0.23585250638778954,,0.0020000003,0.23585462630868542,,0.0020000003,3.299999880048815
0.0020000007000000003,0.23585255096296767,,0.0020000007000000003,0.23585461903045485,,0.0020000007000000003,3.2999998801269745
0.002000001,0.2358526116993145,,0.002000001,0.23585461370809954,,0.002000001,3.2999998802522676
0.00200000108,0.23585263101624077,,0.00200000108,0.23585461231944815,,0.00200000108,3.2999998802981603
0.00200000124,0.23585266965009305,,0.00200000124,0.2358546095637819,,0.00200000124,3.2999998803962094
0.00200000156,0.23585274691779606,,0.00200000156,0.23585460417859694,,0.00200000156,3.2999998806180786
0.0020000022,0.235852901453196,,0.0020000022,0.2358545938930477,,0.0020000022,3.2999998811030835
0.00200000348,0.23585321052397157,,0.00200000348,0.23585457521093517,,0.00200000348,3.2999998821012233
0.0020000060399999998,0.2358538286654264,,0.0020000060399999998,0.23585454529157965,,0.0020000060399999998,3.299999884077725
0.0020000111599999993,0.2358550649479515,,0.0020000111599999993,0.23585451466906354,,0.0020000111599999993,3.299999887940295
0.0020000213999999982,0.23585753751146488,,0.0020000213999999982,0.23585456596476856,,0.0020000213999999982,3.29999989532262
0.002000041879999996,0.2358624826323568,,0.002000041879999996,0.23585508635143104,,0.002000041879999996,3.299999908811271
0.0020000828399999926,0.2358723728496832,,0.0020000828399999926,0.23585757106076516,,0.0020000828399999926,3.299999931380887
0.002000164759999985,0.23589215318701098,,0.002000164759999985,0.23586689956013324,,0.002000164759999985,3.2999999632112496
0.00200032859999997,0.235931713474922,,0.00200032859999997,0.2358958423798161,,0.00200032859999997,3.2999999954704022
0.0020006562799999394,0.2360108325128621,,0.0020006562799999394,0.23596946166971589,,0.0020006562799999394,3.300000011949849
0.0020013116399998786,0.2361690644559888,,0.0020013116399998786,0.236127601870279,,0.0020013116399998786,3.3000000116066137
0.002002622359999757,0.23648550382831282,,0.002002622359999757,0.23644406700991943,,0.002002622359999757,3.3000000102706752
0.002005243799999514,0.2371182845302334,,0.002005243799999514,0.23707680850518462,,0.002005243799999514,3.300000007834703
0.002010486679999028,0.23838345386425108,,0.002010486679999028,0.23834196171203195,,0.002010486679999028,3.3000000026007386
0.0020209724399980564,0.2409122250626295,,0.0020209724399980564,0.24087064301735076,,0.0020209724399980564,3.2999999915887765
0.002041943959996113,0.24596350405082892,,0.002041943959996113,0.24592177337813648,,0.002041943959996113,3.299999966274245
0.002083886999992226,0.256041060057698,,0.002083886999992226,0.2559988994568196,,0.002083886999992226,3.299999900334925
0.002167773079984452,0.276096575965099,,0.002167773079984452,0.27605312464034343,,0.002167773079984452,3.2999996739512047
0.0022677730799844516,0.2998320721254423,,0.0022677730799844516,0.2997856620109364,,0.0022677730799844516,3.299999091200882
0.0023677730799844515,0.3233812604866312,,0.0023677730799844515,0.3233291094922343,,0.0023677730799844515,3.299997764697966
0.0024677730799844513,0.34674560256464587,,0.0024677730799844513,0.3466822954964074,,0.0024677730799844513,3.2999947656873827
0.002500001,0.3542362633087574,,0.002500001,0.3541675187244836,,0.002500001,3.2999931534082485
0.0025000011,0.354236283921538,,0.0025000011,0.3541675419095744,,0.0025000011,3.2999931534024496
0.0025000013,0.3542363199461533,,0.0025000013,0.3541675882712459,,0.0025000013,3.2999931533840603
0.0025000017,0.3542363607897089,,0.0025000017,0.35416768089213013,,0.0025000017,3.2999931532869393
0.0025000020000000003,0.3542363641174106,,0.0025000020000000003,0.35416775022429764,,0.0025000020000000003,3.2999931531468847
0.0025000020800000004,0.3542363618842304,,0.0025000020800000004,0.3541677686829893,,0.0025000020800000004,3.29999315309705
0.0025000022400000006,0.35423635741787013,,0.0025000022400000006,0.3541678055792619,,0.0025000022400000006,3.2999931529910693
0.0025000025600000007,0.3542363484851498,,0.0025000025600000007,0.35416787924888943,,0.0025000025600000007,3.299993152752783
0.0025000032000000007,0.35423633061970955,,0.0025000032000000007,0.3541680261163367,,0.0025000032000000007,3.299993152233183
0.0025000044800000012,0.3542362948888322,,0.0025000044800000012,0.35416831801516585,,0.0025000044800000012,3.2999931511634086
0.0025000070400000023,0.35423622342709066,,0.0025000070400000023,0.35416889457858475,,0.0025000070400000023,3.299993149043315
0.002500012160000004,0.3542360805036614,,0.002500012160000004,0.3541700193026963,,0.002500012160000004,3.299993144898538
0.0025000224000000073,0.3542357946570158,,0.0025000224000000073,0.35417215922808165,,0.0025000224000000073,3.299993136969068
0.0025000428800000143,0.35423522296456633,,0.0025000428800000143,0.35417603165110656,,0.0025000428800000143,3.2999931224543984
0.0025000838400000285,0.35423407958295466,,0.0025000838400000285,0.35418236281707016,,0.0025000838400000285,3.2999930980863095
0.0025001657600000563,0.35423179283238226,,0.0025001657600000563,0.3541907258479807,,0.0025001657600000563,3.2999930635296684
0.002500329600000112,0.35422721937930074,,0.002500329600000112,0.354197172381242,,0.002500329600000112,3.2999930283172487
