X--Trace 1::[transient: TIME],Y--Trace 1::[I_col: I(Q1:C)],,X--Trace 2::[transient: TIME],Y--Trace 2::[I_base: I(Q1:B)]
0,1.8632575482513403e-11,,0,-7.3714913379972e-12
1.0000000000000001e-11,1.8632535514484515e-11,,1.0000000000000001e-11,-7.368892028423163e-12
2.0000000000000002e-11,1.8632397846829463e-11,,2.0000000000000002e-11,-7.36369390898114e-12
4.0000000000000004e-11,1.8631940434943318e-11,,4.0000000000000004e-11,-7.348100268976193e-12
8.000000000000001e-11,1.862979548405974e-11,,8.000000000000001e-11,-7.285732706837448e-12
1.6000000000000002e-10,1.8615664565402312e-11,,1.6000000000000002e-10,-7.036333681644735e-12
3.2000000000000003e-10,1.852077158304155e-11,,3.2000000000000003e-10,-6.0392714483606504e-12
6.400000000000001e-10,1.7927259676753237e-11,,6.400000000000001e-10,-2.055027236172774e-12
1e-9,1.6453758355794434e-11,,1e-9,5.5933074184486236e-12
1.064e-9,1.608345456816096e-11,,1.064e-9,7.249922208317015e-12
1.192e-9,1.5299614908315106e-11,,1.192e-9,1.0561681894298039e-11
1.448e-9,1.3545911059509308e-11,,1.448e-9,1.7176607667830522e-11
1.96e-9,9.702096903652091e-12,,1.96e-9,3.0373381212820797e-11
2.984e-9,1.7124435203186294e-12,,2.984e-9,5.663828894101525e-11
5.032e-9,-1.419057760188025e-11,,5.032e-9,1.0866153225930006e-10
9.128e-9,-4.536476083671914e-11,,9.128e-9,2.1071507662708477e-10
1.7320000000000002e-8,-1.0537022365753046e-10,,1.7320000000000002e-8,4.0710136920526666e-10
3.370400000000001e-8,-2.1651088033536327e-10,,3.370400000000001e-8,7.708901105204598e-10
6.647200000000001e-8,-4.0753921126679414e-10,,6.647200000000001e-8,1.3961220188567138e-9
1.3200800000000003e-7,-6.913171768374582e-10,,1.3200800000000003e-7,2.3249513792086784e-9
2.6308000000000005e-7,-1.009649559513548e-9,,2.6308000000000005e-7,3.366862964252107e-9
5.252240000000001e-7,-1.213777229835955e-9,,5.252240000000001e-7,4.034999014137711e-9
0.0000010495120000000002,-1.2402328808391871e-9,,0.0000010495120000000002,4.121588952797517e-9
0.0000020980880000000004,-1.232148525431853e-9,,0.0000020980880000000004,4.095160546032837e-9
0.000004195240000000001,-1.2369710367110542e-9,,0.000004195240000000001,4.110974762437073e-9
0.000008389544000000002,-1.232990660682276e-9,,0.000008389544000000002,4.098036293158965e-9
0.000016778152000000003,-1.2361765699964166e-9,,0.000016778152000000003,4.108620933832973e-9
0.000033555368000000007,-1.2324272535835234e-9,,0.000033555368000000007,4.0967183413729775e-9
0.00006710980000000001,-1.2345461453122654e-9,,0.00006710980000000001,4.104481452413614e-9
0.00013421866400000002,-1.2292094808685761e-9,,0.00013421866400000002,4.089373518650907e-9
0.00023421866400000002,-1.2283793093814667e-9,,0.00023421866400000002,4.09268873067109e-9
0.000334218664,-1.2197004606306905e-9,,0.000334218664,4.0769094894532735e-9
0.000434218664,-1.2124972625926488e-9,,0.000434218664,4.082256070878088e-9
0.000500001,-1.1975986557999364e-9,,0.000500001,4.070249015208916e-9
0.0005000011000000001,-1.1976557523496467e-9,,0.0005000011000000001,4.069992521354981e-9
0.0005000013,-1.1976743952146762e-9,,0.0005000013,4.0689602408799934e-9
0.0005000017,-1.196990986329638e-9,,0.0005000017,4.063786101837774e-9
0.000500002,-1.1957489753910976e-9,,0.000500002,4.057189104247905e-9
0.00050000208,-1.1952889122923694e-9,,0.00050000208,4.055120987536687e-9
0.0005000022400000001,-1.1943054367691276e-9,,0.0005000022400000001,4.050986977044425e-9
0.0005000025600000001,-1.1920794706909988e-9,,0.0005000025600000001,4.042731886427787e-9
0.0005000032000000001,-1.1872203264928772e-9,,0.0005000032000000001,4.026271402940429e-9
0.0005000044800000001,-1.177241357730452e-9,,0.0005000044800000001,3.99354415516473e-9
0.0005000070400000002,-1.1574980751660747e-9,,0.0005000070400000002,3.9288532384024194e-9
0.0005000121600000002,-1.1189320847648787e-9,,0.0005000121600000002,3.8024665583419326e-9
0.0005000224000000004,-1.045310105141084e-9,,0.0005000224000000004,3.5612186770533905e-9
0.0005000428800000007,-9.111047383214554e-10,,0.0005000428800000007,3.121424590785127e-9
0.0005000838400000014,-6.875501767922288e-10,,0.0005000838400000014,2.3888521380244223e-9
0.0005001657600000027,-3.7492358107016343e-10,,0.0005001657600000027,1.3643761517440067e-9
0.0005003296000000053,-6.295942434064727e-11,,0.0005003296000000053,3.420821436950217e-10
0.0005006572800000104,9.227073771711503e-11,,0.0005006572800000104,-1.6661804018158754e-10
0.0005013126400000207,9.193425576370374e-11,,0.0005013126400000207,-1.655287189483712e-10
0.0005026233600000414,9.204864870326901e-11,,0.0005026233600000414,-1.6594515506451746e-10
0.0005052448000000826,9.193056094147778e-11,,0.0005052448000000826,-1.656250887688282e-10
0.0005104876800001652,9.193592553913278e-11,,0.0005104876800001652,-1.658010393867926e-10
0.0005209734400003303,9.173952264518448e-11,,0.0005209734400003303,-1.6546018367369353e-10
0.0005419449600006605,9.154207614159304e-11,,0.0005419449600006605,-1.654183342469917e-10
0.0005838880000013208,9.096683850629007e-11,,0.0005838880000013208,-1.6472048864346612e-10
0.0006677740800026417,9.001626555260601e-11,,0.0006677740800026417,-1.639310539536254e-10
0.0007677740800026417,8.878697332903584e-11,,0.0007677740800026417,-1.6255959912753193e-10
0.0008677740800026417,8.771055437506448e-11,,0.0008677740800026417,-1.6158899195650723e-10
0.0009677740800026418,8.655065553142549e-11,,0.0009677740800026418,-1.6023266713738327e-10
0.001,8.625923531013768e-11,,0.001,-1.6005218296255563e-10
0.0010000001,8.624049918637411e-11,,0.0010000001,-1.597923922222466e-10
0.0010000003000000001,8.613915358779423e-11,,0.0010000003000000001,-1.587537503885961e-10
0.0010000007,8.534537965232402e-11,,0.0010000007,-1.5356654873149855e-10
0.001000001,8.407556872924715e-11,,0.001000001,-1.4695961337712894e-10
0.0010000010799999998,8.361169090420617e-11,,0.0010000010799999998,-1.4488884694519033e-10
0.0010000012399999998,8.262161621530595e-11,,0.0010000012399999998,-1.407495340166598e-10
0.0010000015599999999,8.038637311358343e-11,,0.0010000015599999999,-1.3248385559022635e-10
0.0010000022,7.551700154095898e-11,,0.0010000022,-1.1600229465058565e-10
0.0010000034799999998,6.552467901599357e-11,,0.0010000034799999998,-8.323335393412013e-11
0.0010000060399999995,4.5754515731744054e-11,,0.0010000060399999995,-1.8460956034693777e-11
0.001000011159999999,7.1408168267339536e-12,,0.001000011159999999,1.0808130175704589e-10
0.001000021399999998,-6.656867945764588e-11,,0.001000021399999998,3.496124054896965e-10
0.0010000418799999962,-2.0092300712093448e-10,,0.0010000418799999962,7.898732966790667e-10
0.0010000828399999923,-4.2467012573155216e-10,,0.0010000828399999923,1.5230619650100086e-9
0.0010001647599999848,-7.374312227526047e-10,,0.0010001647599999848,2.5479626241622922e-9
0.0010003285999999696,-1.0492519608717999e-9,,0.0010003285999999696,3.5698281013393788e-9
0.0010006562799999392,-1.2040731967033481e-9,,0.0010006562799999392,4.077357364143386e-9
0.0010013116399998784,-1.203484840672786e-9,,0.0010013116399998784,4.075843083989339e-9
0.0010026223599997569,-1.2033939800204507e-9,,0.0010026223599997569,4.076395937979704e-9
0.001005243799999514,-1.202718977744155e-9,,0.001005243799999514,4.075899295923058e-9
0.0010104866799990281,-1.2016773975886963e-9,,0.0010104866799990281,4.076042580100637e-9
0.0010209724399980564,-1.199159793685567e-9,,0.0010209724399980564,4.075384729718135e-9
0.0010419439599961128,-1.1937627419911224e-9,,0.0010419439599961128,4.075032209274743e-9
0.0010838869999922258,-1.1795626875255039e-9,,0.0010838869999922258,4.073835943702031e-9
0.0011677730799844518,-1.1318820769545824e-9,,0.0011677730799844518,4.0743739688098306e-9
0.0012677730799844518,-1.0086329993441723e-9,,0.0012677730799844518,4.080879836398932e-9
0.0013677730799844519,-7.229278109477377e-10,,0.0013677730799844519,4.101262440703302e-9
0.001467773079984452,-5.939999603299384e-11,,0.001467773079984452,4.1470266562732005e-9
0.001500001,3.0291806840665457e-10,,0.001500001,4.171650340481503e-9
0.0015000011,3.029038042612342e-10,,0.0015000011,4.171390744028836e-9
0.0015000013,3.029517614550059e-10,,0.0015000013,4.1703523533526136e-9
0.0015000017000000002,3.036881324192109e-10,,0.0015000017000000002,4.165165561909046e-9
0.001500002,3.049322971904189e-10,,0.001500002,4.158558662231693e-9
0.0015000020800000002,3.0539038853305557e-10,,0.0015000020800000002,4.156487826842415e-9
0.0015000022400000002,3.0636959191809865e-10,,0.0015000022400000002,4.152348319411137e-9
0.0015000025600000002,3.0858840371905674e-10,,0.0015000025600000002,4.144081901966135e-9
0.0015000032000000003,3.1344462136928543e-10,,0.0015000032000000003,4.127597464398392e-9
0.0015000044800000003,3.234424683640214e-10,,0.0015000044800000003,4.094817097538561e-9
0.0015000070400000007,3.432410222714566e-10,,0.0015000070400000007,4.029999271965013e-9
0.0015000121600000013,3.8193802343045035e-10,,0.0015000121600000013,3.903279174111152e-9
0.0015000224000000027,4.559093369493894e-10,,0.0015000224000000027,3.6610706279610608e-9
0.0015000428800000052,5.911044631545792e-10,,0.0015000428800000052,3.218356858447624e-9
0.0015000838400000102,8.174678090000498e-10,,0.0015000838400000102,2.4771066808315647e-9
0.0015001657600000203,1.1371621155831235e-9,,0.0015001657600000203,1.4301278654538231e-9
0.0015003296000000407,1.462324168421958e-9,,0.0015003296000000407,3.6497725074968735e-10
0.0015006572800000814,1.6310262207497317e-9,,0.0015006572800000814,-1.884969064808173e-10
0.0015013126400001628,1.6333072005991767e-9,,0.0015013126400001628,-1.9821548310761108e-10
0.0015026233600003256,1.630798878160533e-9,,0.0015026233600003256,-1.9452067810954434e-10
0.001505244800000651,1.6288380511042534e-9,,0.001505244800000651,-1.9711480941375647e-10
0.001510487680001302,1.6227994370510147e-9,,0.001510487680001302,-1.953292296630327e-10
0.001520973440002604,1.6125887203344291e-9,,0.001520973440002604,-1.976438568834782e-10
0.0015419449600052079,1.590759000080766e-9,,0.0015419449600052079,-1.9683460217301275e-10
0.0015838880000104158,1.549691162061606e-9,,0.0015838880000104158,-2.0036996570826916e-10
0.0016677740800208317,1.4697980388334032e-9,,0.0016677740800208317,-2.0212382134399133e-10
0.0017677740800208317,1.3819362010281112e-9,,0.0017677740800208317,-2.0755146698803186e-10
0.0018677740800208318,1.2993383302628559e-9,,0.0018677740800208318,-2.0928284195365077e-10
0.001967774080020832,1.2235560786777456e-9,,0.001967774080020832,-2.1400108907443373e-10
0.002,1.199629768855459e-9,,0.002,-2.1328893349270573e-10
0.0020000001,1.1996113791212793e-9,,0.0020000001,-2.1302967936065454e-10
0.0020000003,1.1995118498475677e-9,,0.0020000003,-2.1199208958821991e-10
0.0020000007000000003,1.1987302528382316e-9,,0.0020000007000000003,-2.0680674871764726e-10
0.002000001,1.197477321746021e-9,,0.002000001,-2.002008785029208e-10
0.00200000108,1.19701839551567e-9,,0.00200000108,-1.9813032073878747e-10
0.00200000124,1.1960379042719183e-9,,0.00200000124,-1.9399136888531565e-10
0.00200000156,1.1938192123750468e-9,,0.00200000156,-1.8572608008748937e-10
0.0020000022,1.188969163123943e-9,,0.0020000022,-1.6924398516804386e-10
0.00200000348,1.17898776519354e-9,,0.00200000348,-1.364686963600814e-10
0.0020000060399999998,1.1592227489032324e-9,,0.0020000060399999998,-7.166261532520758e-11
0.0020000111599999993,1.1205970462668803e-9,,0.0020000111599999993,5.5027888795633474e-11
0.0020000213999999982,1.0467737965313973e-9,,0.0020000213999999982,2.971546696317606e-10
0.002000041879999996,9.118872901225928e-10,,0.002000041879999996,7.396280925747734e-10
0.0020000828399999926,6.861911261424325e-10,,0.0020000828399999926,1.4801788918050729e-9
0.002000164759999985,3.678875026835726e-10,,0.002000164759999985,2.5253626877747016e-9
0.00200032859999997,4.5295975859005467e-11,,0.00200032859999997,3.5871095105916018e-9
0.0020006562799999394,-1.1949849110237664e-10,,0.0020006562799999394,4.137084314620454e-9
0.0020013116399998786,-1.160661389221218e-10,,0.0020013116399998786,4.146258570977835e-9
0.002002622359999757,-1.0270675421253373e-10,,0.002002622359999757,4.143681839338664e-9
0.002005243799999514,-7.834703108500208e-11,,0.002005243799999514,4.147602504878112e-9
0.002010486679999028,-2.6007387354809453e-11,,0.002010486679999028,4.149215221913027e-9
0.0020209724399980564,8.411223273441237e-11,,0.0020209724399980564,4.158204527873744e-9
0.002041943959996113,3.3725754633451287e-10,,0.002041943959996113,4.173067269244713e-9
0.002083886999992226,9.966507485970056e-10,,0.002083886999992226,4.216060087841589e-9
0.002167773079984452,3.2604879507402985e-9,,0.002167773079984452,4.345132475558344e-9
0.0022677730799844516,9.087991177381127e-9,,0.0022677730799844516,4.641011450584598e-9
0.0023677730799844515,2.235302033692932e-8,,0.0023677730799844515,5.215099439687121e-9
0.0024677730799844513,5.2343126171194856e-8,,0.0024677730799844513,6.330706823848287e-9
0.002500001,6.846591751319409e-8,,0.002500001,6.874458427380548e-9
0.0025000011,6.84659755023631e-8,,0.0025000011,6.87420119636073e-9
0.0025000013,6.846615939526401e-8,,0.0025000013,6.87316749073963e-9
0.0025000017,6.846713060504328e-8,,0.0025000017,6.867989757874949e-9
0.0025000020000000003,6.846853115138884e-8,,0.0025000020000000003,6.861389311296762e-9
0.0025000020800000004,6.846902949941836e-8,,0.0025000020800000004,6.859320124108504e-9
0.0025000022400000006,6.847008930499499e-8,,0.0025000022400000006,6.855183860821068e-9
0.0025000025600000007,6.847247216779095e-8,,0.0025000025600000007,6.846923626036006e-9
0.0025000032000000007,6.847766816697743e-8,,0.0025000032000000007,6.8304503372862425e-9
0.0025000044800000012,6.848836591188956e-8,,0.0025000044800000012,6.797687366633109e-9
0.0025000070400000023,6.8509566846231e-8,,0.0025000070400000023,6.732884850590981e-9
0.002500012160000004,6.855101462033276e-8,,0.002500012160000004,6.606120096508406e-9
0.0025000224000000073,6.863030932002801e-8,,0.0025000224000000073,6.3635428934172295e-9
0.0025000428800000143,6.877545601469137e-8,,0.0025000428800000143,5.9191313459772135e-9
0.0025000838400000285,6.901913690349204e-8,,0.0025000838400000285,5.1716765884501915e-9
0.0025001657600000563,6.936470331453393e-8,,0.0025001657600000563,4.106698440153878e-9
0.002500329600000112,6.971682751100162e-8,,0.002500329600000112,3.004699805875255e-9
0.002500657280000224,6.989033471960227e-8,,0.002500657280000224,2.4098991621313017e-9
0.0025013126400004475,6.985243299340027e-8,,0.0025013126400004475,2.3875251448368664e-9
0.0025026233600008944,6.976032919325803e-8,,0.0025026233600008944,2.3924432061006587e-9
0.002505244800001788,6.958334095585884e-8,,0.002505244800001788,2.381521818978216e-9
0.002510487680003576,6.92261058432564e-8,,0.002510487680003576,2.374068926497275e-9
0.002520973440007152,6.852151205993806e-8,,0.002520973440007152,2.3472613812136613e-9
0.0025419449600143033,6.713191671892105e-8,,0.0025419449600143033,2.305366377919338e-9
0.002583888000028606,6.444670513250373e-8,,0.002583888000028606,2.213423793240299e-9
0.0026677740800572117,5.941547606802544e-8,,0.0026677740800572117,2.049432243100835e-9
0.0027677740800572115,5.396912534205711e-8,,0.0027677740800572115,1.8618137947401526e-9
0.0028677740800572113,4.9057910209704406e-8,,0.0028677740800572113,1.6963429553817912e-9
0.002967774080057211,4.462991439524444e-8,,0.002967774080057211,1.5380857791680302e-9
0.003,4.3295610923088645e-8,,0.003,1.4942753727154036e-9
0.0030000001,4.3295588993963465e-8,,0.0030000001,1.4945340176764078e-9
0.0030000003,4.3295483225236354e-8,,0.0030000003,1.49557040671211e-9
0.0030000007000000003,4.329469718733492e-8,,0.0030000007000000003,1.500753562377888e-9
0.003000001,4.3293447586911786e-8,,0.003000001,1.5073580852398295e-9
0.00300000108,4.3292990006271736e-8,,0.00300000108,1.509428350954245e-9
0.00300000124,4.329201213959522e-8,,0.00300000124,1.5135667689458731e-9
0.00300000156,4.3289795352841054e-8,,0.00300000156,1.5218312825193703e-9
0.0030000022,4.328493373506603e-8,,0.0030000022,1.5383129881918478e-9
0.00300000348,4.327490869648898e-8,,0.00300000348,1.571092220786774e-9
0.0030000060399999998,4.325505144731068e-8,,0.0030000060399999998,1.6359249559894097e-9
0.0030000111599999993,4.321626162262504e-8,,0.0030000111599999993,1.7627411979082021e-9
0.0030000213999999983,4.314219562928656e-8,,0.0030000213999999983,2.00538817310969e-9
0.003000041879999996,4.30071560009182e-8,,0.003000041879999996,2.449824735339945e-9
0.0030000828399999926,4.278246366062888e-8,,0.0030000828399999926,3.196992650822406e-9
0.003000164759999985,4.2471026193702246e-8,,0.003000164759999985,4.260716393206243e-9
0.00300032859999997,4.217750312562885e-8,,0.00300032859999997,5.360055944308995e-9
0.0030006562799999394,4.210491773459779e-8,,0.0030006562799999394,5.95335980877465e-9
0.0030013116399998786,4.2331874983148056e-8,,0.0030013116399998786,5.98126548062572e-9
0.003002622359999757,4.2804366358062395e-8,,0.003002622359999757,5.990881669343251e-9
0.003005243799999514,4.375823023483605e-8,,0.003005243799999514,6.029980478283737e-9
0.003010486679999028,4.5732292490718866e-8,,0.003010486679999028,6.096529275018137e-9
0.0030209724399980565,4.9937362125440645e-8,,0.0030209724399980565,6.248401007019622e-9
0.003041943959996113,5.9501741129786014e-8,,0.003041943959996113,6.5740997336916075e-9
0.003083886999992226,8.424876906332201e-8,,0.003083886999992226,7.387355249283134e-9
0.003167773079984452,1.675020018332418e-7,,0.003167773079984452,9.845195835084253e-9
0.0032677730799844516,3.7580538438941605e-7,,0.0032677730799844516,1.518898541643665e-8
0.0033677730799844515,8.345852560776024e-7,,0.0033677730799844515,2.53235520580819e-8
0.0034677730799844513,0.0000018342112739100358,,0.0034677730799844513,4.4446675326537124e-8
0.003500001,0.0000023582645687714176,,0.003500001,5.364179873397213e-8
0.0035000011,0.000002358267851927387,,0.0035000011,5.364157658382385e-8
0.0035000013,0.0000023582738709171383,,0.0035000013,5.364061067151816e-8
0.0035000017000000002,0.000002358284117716103,,0.0035000017000000002,5.363556108182732e-8
0.0035000020000000003,0.000002358291370434529,,0.0035000020000000003,5.3629053159415244e-8
0.0035000020800000004,0.0000023582933533905502,,0.0035000020800000004,5.3627008344769856e-8
0.0035000022400000007,0.000002358297355984362,,0.0035000022400000007,5.3622920705986845e-8
0.0035000025600000007,0.0000023583055118425734,,0.0035000025600000007,5.361475708403618e-8
0.0035000032000000007,0.000002358322050959316,,0.0035000032000000007,5.359847522289352e-8
0.0035000044800000013,0.0000023583551622907707,,0.0035000044800000013,5.3566089580209254e-8
0.0035000070400000023,0.0000023584206167193143,,0.0035000070400000023,5.350202143964422e-8
0.003500012160000004,0.0000023585483651622495,,0.003500012160000004,5.337664669437525e-8
0.0035000224000000073,0.0000023587917214573653,,0.0035000224000000073,5.3136551566251855e-8
0.0035000428800000143,0.0000023592331850474933,,0.0035000428800000143,5.269603785365562e-8
0.0035000838400000285,0.0000023599587737566098,,0.0035000838400000285,5.195295956068602e-8
0.0035001657600000563,0.0000023609294490345434,,0.0035001657600000563,5.088793326664121e-8
0.003500329600000112,0.0000023617135737330488,,0.003500329600000112,4.977167450772591e-8
0.003500657280000224,0.0000023614482533540483,,0.003500657280000224,4.914518774312704e-8
0.0035013126400004475,0.0000023595580679280913,,0.0035013126400004475,4.9084469392701725e-8
0.0035026233600008944,0.0000023557076691949064,,0.0035026233600008944,4.9028666069322885e-8
0.003505244800001788,0.0000023480568375777722,,0.003505244800001788,4.8890427969428e-8
0.003510487680003576,0.0000023328126248056693,,0.003510487680003576,4.863354832476685e-8
0.003520973440007152,0.000002302653003636301,,0.003520973440007152,4.810876137796294e-8
0.0035419449600143033,0.0000022435424587952113,,0.0035419449600143033,4.709099520125992e-8
0.003583888000028606,0.0000021300757530173796,,0.003583888000028606,4.5110266779674337e-8
0.0036677740800572117,0.0000019208791222524725,,0.0036677740800572117,4.1421158147886276e-8
0.0037677740800572115,0.0000016994614612064751,,0.0037677740800572115,3.742819093537353e-8
